T04D0 013:256.969   SEGGER J-Link V6.60c Log File
T04D0 013:257.062   DLL Compiled: Dec 23 2019 16:14:31
T04D0 013:257.067   Logging started @ 2020-07-25 10:21
T04D0 013:257.076 JLINK_SetWarnOutHandler(...)
T04D0 013:257.082 - 0.008ms
T04D0 013:257.090 JLINK_OpenEx(...)
T04D0 013:295.108   Firmware: J-Link ARM V8 compiled Nov 28 2014 13:44:46
T04D0 013:297.177   Hardware: V8.00
T04D0 013:297.195   S/N: 4294967295
T04D0 013:297.202   OEM: SEGGER
T04D0 013:297.209   Feature(s): RDI,FlashDL,FlashBP,JFlash,GDB
T04D0 013:298.182   TELNET listener socket opened on port 19021
T04D0 013:298.261   WEBSRV Starting webserver
T04D0 013:298.394   WEBSRV Webserver running on local port 19080
T04D0 013:298.402 - 41.314ms returns "O.K."
T04D0 013:298.419 JLINK_GetEmuCaps()
T04D0 013:298.424 - 0.007ms returns 0xB9FF7BBF
T04D0 013:298.436 JLINK_TIF_GetAvailable(...)
T04D0 013:298.577 - 0.146ms
T04D0 013:298.590 JLINK_SetErrorOutHandler(...)
T04D0 013:298.595 - 0.006ms
T04D0 013:298.610 JLINK_ExecCommand("ProjectFile = "E:\nrf_projects\Noswear_blinky\ble_peripheral\experimental_ble_app_blinky\pca10028\s130\arm5\JLinkSettings.ini"", ...). 
T04D0 013:299.462   Ref file found at: E:\ProgramFiles\Keil\ARM\Segger\JLinkDevices.ref
T04D0 013:299.526   XML referenced by ref file: C:\Program Files (x86)\SEGGER\JLink\JLinkDevices.xml
T04D0 013:300.675   C:\Program Files (x86)\SEGGER\JLink\JLinkDevices.xml evaluated successfully.
T04D0 013:353.016 - 54.419ms returns 0x00
T04D0 013:354.739 JLINK_ExecCommand("Device = nRF51422_xxAC", ...). 
T04D0 013:356.455   Device "NRF51422_XXAC" selected.
T04D0 013:356.697 - 1.946ms returns 0x00
T04D0 013:356.710 JLINK_ExecCommand("DisableConnectionTimeout", ...). 
T04D0 013:356.719 - 0.005ms returns 0x01
T04D0 013:356.729 JLINK_GetHardwareVersion()
T04D0 013:356.734 - 0.007ms returns 0x13880
T04D0 013:356.741 JLINK_GetDLLVersion()  returns 66003
T04D0 013:356.753 JLINK_GetFirmwareString(...)
T04D0 013:356.757 - 0.006ms
T04D0 013:360.847 JLINK_GetDLLVersion()  returns 66003
T04D0 013:360.862 JLINK_GetCompileDateTime()
T04D0 013:360.867 - 0.006ms
T04D0 013:362.312 JLINK_GetFirmwareString(...)
T04D0 013:362.322 - 0.012ms
T04D0 013:363.643 JLINK_GetHardwareVersion()
T04D0 013:363.653 - 0.012ms returns 0x13880
T04D0 013:367.522 JLINK_TIF_Select(JLINKARM_TIF_SWD)
T04D0 013:367.991 - 0.475ms returns 0x00
T04D0 013:368.012 JLINK_SetSpeed(5000)
T04D0 013:368.064 - 0.057ms
T04D0 013:368.077 JLINK_GetId()
T04D0 013:370.090   Found SW-DP with ID 0x0BB11477
T04D0 013:373.609   Scanning AP map to find all available APs
T04D0 013:376.572   AP[1]: Stopped AP scan as end of AP map has been reached
T04D0 013:377.881   AP[0]: AHB-AP (IDR: 0x04770021)
T04D0 013:379.290   Iterating through AP map to find AHB-AP to use
T04D0 013:384.421   AP[0]: Core found
T04D0 013:385.785   AP[0]: AHB-AP ROM base: 0xF0000000
T04D0 013:388.694   CPUID register: 0x410CC200. Implementer code: 0x41 (ARM)
T04D0 013:390.016   Found Cortex-M0 r0p0, Little endian.
T04D0 013:491.192    -- Max. mem block: 0x00002408
T04D0 013:491.297    -- CPU_ReadMem(4 bytes @ 0xE000EDF0)
T04D0 013:492.046    -- CPU_WriteMem(4 bytes @ 0xE000EDF0)
T04D0 013:492.532    -- CPU_ReadMem(4 bytes @ 0xE0002000)
T04D0 013:496.382   FPUnit: 4 code (BP) slots and 0 literal slots
T04D0 013:496.422    -- CPU_ReadMem(4 bytes @ 0xE000EDFC)
T04D0 013:496.836    -- CPU_WriteMem(4 bytes @ 0xE000EDFC)
T04D0 013:497.217    -- CPU_ReadMem(4 bytes @ 0xE0001000)
T04D0 013:497.567    -- CPU_WriteMem(4 bytes @ 0xE0001000)
T04D0 013:500.815   CoreSight components:
T04D0 013:503.771   ROMTbl[0] @ F0000000
T04D0 013:503.810    -- CPU_ReadMem(16 bytes @ 0xF0000000)
T04D0 013:504.270    -- CPU_ReadMem(16 bytes @ 0xE00FFFF0)
T04D0 013:504.704    -- CPU_ReadMem(16 bytes @ 0xE00FFFE0)
T04D0 013:508.137   ROMTbl[0][0]: E00FF000, CID: B105100D, PID: 000BB471 ROM Table
T04D0 013:510.946   ROMTbl[1] @ E00FF000
T04D0 013:510.981    -- CPU_ReadMem(16 bytes @ 0xE00FF000)
T04D0 013:511.442    -- CPU_ReadMem(16 bytes @ 0xE000EFF0)
T04D0 013:511.916    -- CPU_ReadMem(16 bytes @ 0xE000EFE0)
T04D0 013:515.640   ROMTbl[1][0]: E000E000, CID: B105E00D, PID: 000BB008 SCS
T04D0 013:515.677    -- CPU_ReadMem(16 bytes @ 0xE0001FF0)
T04D0 013:516.122    -- CPU_ReadMem(16 bytes @ 0xE0001FE0)
T04D0 013:519.354   ROMTbl[1][1]: E0001000, CID: B105E00D, PID: 000BB00A DWT
T04D0 013:519.386    -- CPU_ReadMem(16 bytes @ 0xE0002FF0)
T04D0 013:519.866    -- CPU_ReadMem(16 bytes @ 0xE0002FE0)
T04D0 013:522.970   ROMTbl[1][2]: E0002000, CID: B105E00D, PID: 000BB00B FPB
T04D0 013:522.995    -- CPU_ReadMem(16 bytes @ 0xF0002FF0)
T04D0 013:523.402    -- CPU_ReadMem(16 bytes @ 0xF0002FE0)
T04D0 013:525.347   ROMTbl[0][1]: F0002000, CID: B105900D, PID: 000BB9A3 ???
T04D0 013:525.377    -- CPU_ReadMem(4 bytes @ 0x10001004)
T04D0 013:525.932 - 157.863ms   returns 0x0BB11477
T04D0 013:525.953 JLINK_GetDLLVersion()  returns 66003
T04D0 013:525.989 JLINK_CORE_GetFound()
T04D0 013:525.993 - 0.007ms returns 0x60000FF
T04D0 013:526.001 JLINK_GetDebugInfo(0x100 = JLINKARM_ROM_TABLE_ADDR_INDEX)
T04D0 013:526.006   Value=0xF0000000
T04D0 013:526.013 - 0.014ms returns 0x00
T04D0 013:527.502 JLINK_GetDebugInfo(0x100 = JLINKARM_ROM_TABLE_ADDR_INDEX)
T04D0 013:527.517   Value=0xF0000000
T04D0 013:527.538 - 0.039ms returns 0x00
T04D0 013:527.546 JLINK_GetDebugInfo(0x101 = JLINKARM_DEBUG_INFO_ETM_ADDR_INDEX)
T04D0 013:527.551   Value=0x00000000
T04D0 013:527.557 - 0.013ms returns 0x00
T04D0 013:527.573   JLINK_ReadMemEx(0xE0041FF0, 0x0010 Bytes, ..., Flags = 0x02000004)
T04D0 013:527.594    -- CPU_ReadMem(16 bytes @ 0xE0041FF0)
T04D0 013:528.060   Data:  00 00 00 00 00 00 00 00 00 00 00 00 00 00 00 00
T04D0 013:528.075 - 0.506ms returns 0x10
T04D0 013:528.085 JLINK_GetDebugInfo(0x102 = JLINKARM_DEBUG_INFO_MTB_ADDR_INDEX)
T04D0 013:528.090   Value=0x00000000
T04D0 013:528.096 - 0.014ms returns 0x00
T04D0 013:528.102 JLINK_GetDebugInfo(0x103 = JLINKARM_DEBUG_INFO_TPIU_ADDR_INDEX)
T04D0 013:528.107   Value=0x00000000
T04D0 013:528.113 - 0.013ms returns 0x00
T04D0 013:528.120   JLINK_ReadMemEx(0xE0040FF0, 0x0010 Bytes, ..., Flags = 0x02000004)
T04D0 013:528.133    -- CPU_ReadMem(16 bytes @ 0xE0040FF0)
T04D0 013:528.532   Data:  00 00 00 00 00 00 00 00 00 00 00 00 00 00 00 00
T04D0 013:528.547 - 0.429ms returns 0x10
T04D0 013:528.557 JLINK_GetDebugInfo(0x104 = JLINKARM_DEBUG_INFO_ITM_ADDR_INDEX)
T04D0 013:528.562   Value=0xE0000000
T04D0 013:528.619 - 0.064ms returns 0x00
T04D0 013:528.625 JLINK_GetDebugInfo(0x105 = JLINKARM_DEBUG_INFO_DWT_ADDR_INDEX)
T04D0 013:528.631   Value=0xE0001000
T04D0 013:528.637 - 0.013ms returns 0x00
T04D0 013:528.643 JLINK_GetDebugInfo(0x106 = JLINKARM_DEBUG_INFO_FPB_ADDR_INDEX)
T04D0 013:528.647   Value=0xE0002000
T04D0 013:528.653 - 0.012ms returns 0x00
T04D0 013:528.659 JLINK_GetDebugInfo(0x107 = JLINKARM_DEBUG_INFO_NVIC_ADDR_INDEX)
T04D0 013:528.664   Value=0xE000E000
T04D0 013:528.670 - 0.013ms returns 0x00
T04D0 013:528.676 JLINK_GetDebugInfo(0x10C = JLINKARM_DEBUG_INFO_DBG_ADDR_INDEX)
T04D0 013:528.681   Value=0xE000EDF0
T04D0 013:528.687 - 0.013ms returns 0x00
T04D0 013:528.693 JLINK_GetDebugInfo(0x01 = Unknown)
T04D0 013:528.703   Value=0x00000000
T04D0 013:528.709 - 0.018ms returns 0x00
T04D0 013:528.721   JLINK_ReadMemU32(0xE000ED00, 0x0001 Items, ...)
T04D0 013:528.734    -- CPU_ReadMem(4 bytes @ 0xE000ED00)
T04D0 013:529.063   Data:  00 C2 0C 41
T04D0 013:529.104    - CPUID
T04D0 013:529.111 - 0.392ms returns 1
T04D0 013:529.120 JLINK_GetDebugInfo(0x10F = JLINKARM_DEBUG_INFO_HAS_CORTEX_M_SECURITY_EXT_INDEX)
T04D0 013:529.126   Value=0x00000000
T04D0 013:529.133 - 0.015ms returns 0x00
T04D0 013:529.144 JLINK_SetResetType(JLINKARM_CM3_RESET_TYPE_NORMAL)
T04D0 013:529.149 - 0.007ms returns JLINKARM_CM3_RESET_TYPE_NORMAL
T04D0 013:529.156 JLINK_Reset()
T04D0 013:529.172   CPU is running
T04D0 013:529.180    -- CPU_WriteMem(4 bytes @ 0xE000EDF0)
T04D0 013:529.504   CPU is running
T04D0 013:529.515    -- CPU_WriteMem(4 bytes @ 0xE000EDFC)
T04D0 013:531.393   Reset: Halt core after reset via DEMCR.VC_CORERESET.
T04D0 013:533.369   Reset: Reset device via AIRCR.SYSRESETREQ.
T04D0 013:533.391   CPU is running
T04D0 013:533.401    -- CPU_WriteMem(4 bytes @ 0xE000ED0C)
T04D0 013:585.946    -- CPU_ReadMem(4 bytes @ 0xE000EDF0)
T04D0 013:586.308    -- CPU_ReadMem(4 bytes @ 0xE000EDF0)
T04D0 013:586.686   CPU is running
T04D0 013:586.698    -- CPU_WriteMem(4 bytes @ 0xE000EDF0)
T04D0 013:587.033   CPU is running
T04D0 013:587.044    -- CPU_WriteMem(4 bytes @ 0xE000EDFC)
T04D0 013:592.582    -- CPU_ReadMem(4 bytes @ 0xE000EDF0)
T04D0 013:594.961    -- CPU_WriteMem(4 bytes @ 0xE0002000)
T04D0 013:595.314    -- CPU_ReadMem(4 bytes @ 0xE000EDFC)
T04D0 013:595.689    -- CPU_ReadMem(4 bytes @ 0xE0001000)
T04D0 013:595.997    -- CPU_WriteMem(4 bytes @ 0xE0001000)
T04D0 013:596.328 - 67.178ms
T04D0 013:596.381 JLINK_Halt()
T04D0 013:596.386 - 0.007ms returns 0x00
T04D0 013:596.394   JLINK_ReadMemU32(0xE000EDF0, 0x0001 Items, ...)
T04D0 013:596.407    -- CPU_ReadMem(4 bytes @ 0xE000EDF0)
T04D0 013:596.709   Data:  03 00 03 00
T04D0 013:596.720    - DHCSR
T04D0 013:596.726 - 0.335ms returns 1
T04D0 013:596.736   JLINK_WriteU32(0xE000EDF0, 0xA05F0003)
T04D0 013:596.743    - DHCSR
T04D0 013:596.762    -- CPU_WriteMem(4 bytes @ 0xE000EDF0)
T04D0 013:597.085 - 0.355ms returns 0
T04D0 013:597.098   JLINK_WriteU32(0xE000EDFC, 0x01000000)
T04D0 013:597.105    - DEMCR
T04D0 013:597.115    -- CPU_WriteMem(4 bytes @ 0xE000EDFC)
T04D0 013:597.437 - 0.345ms returns 0
T04D0 013:603.228 JLINK_GetHWStatus(...)
T04D0 013:603.409 - 0.189ms returns 0x00
T04D0 013:607.733 JLINK_GetNumBPUnits(Type = 0xFFFFFF00)
T04D0 013:607.752 - 0.022ms returns 0x04
T04D0 013:607.759 JLINK_GetNumBPUnits(Type = 0xF0)
T04D0 013:607.764 - 0.007ms returns 0x2000
T04D0 013:607.771 JLINK_GetNumWPUnits()
T04D0 013:607.775 - 0.006ms returns 0x02
T04D0 013:612.200 JLINK_GetSpeed()
T04D0 013:612.220 - 0.022ms returns 0xFA0
T04D0 013:615.162   JLINK_ReadMemU32(0xE000E004, 0x0001 Items, ...)
T04D0 013:615.193    -- CPU_ReadMem(4 bytes @ 0xE000E004)
T04D0 013:615.515   Data:  00 00 00 00
T04D0 013:615.537 - 0.378ms returns 1
T04D0 013:615.549 JLINK_Halt()
T04D0 013:615.554 - 0.007ms returns 0x00
T04D0 013:615.565 JLINK_IsHalted()
T04D0 013:615.570 - 0.007ms returns TRUE
T04D0 013:617.599 JLINK_WriteMem(0x20000000, 0x0478 Bytes, ...)
T04D0 013:617.611   Data:  00 BE 0A E0 0D 78 2D 06 68 40 08 24 40 00 00 D3 ...
T04D0 013:618.023    -- CPU_WriteMem(1144 bytes @ 0x20000000)
T04D0 013:625.148 - 7.566ms returns 0x478
T04D0 013:625.220 JLINK_WriteReg(R0, 0x00000000)
T04D0 013:625.230 - 0.013ms returns 0x00
T04D0 013:625.237 JLINK_WriteReg(R1, 0x00F42400)
T04D0 013:625.242 - 0.007ms returns 0x00
T04D0 013:625.248 JLINK_WriteReg(R2, 0x00000001)
T04D0 013:625.253 - 0.007ms returns 0x00
T04D0 013:625.259 JLINK_WriteReg(R3, 0x00000000)
T04D0 013:625.264 - 0.007ms returns 0x00
T04D0 013:625.270 JLINK_WriteReg(R4, 0x00000000)
T04D0 013:625.274 - 0.007ms returns 0x00
T04D0 013:625.280 JLINK_WriteReg(R5, 0x00000000)
T04D0 013:625.285 - 0.007ms returns 0x00
T04D0 013:625.291 JLINK_WriteReg(R6, 0x00000000)
T04D0 013:625.296 - 0.007ms returns 0x00
T04D0 013:625.302 JLINK_WriteReg(R7, 0x00000000)
T04D0 013:625.307 - 0.007ms returns 0x00
T04D0 013:625.313 JLINK_WriteReg(R8, 0x00000000)
T04D0 013:625.317 - 0.007ms returns 0x00
T04D0 013:625.323 JLINK_WriteReg(R9, 0x20000474)
T04D0 013:625.328 - 0.007ms returns 0x00
T04D0 013:625.334 JLINK_WriteReg(R10, 0x00000000)
T04D0 013:625.339 - 0.007ms returns 0x00
T04D0 013:625.345 JLINK_WriteReg(R11, 0x00000000)
T04D0 013:625.350 - 0.007ms returns 0x00
T04D0 013:625.356 JLINK_WriteReg(R12, 0x00000000)
T04D0 013:625.361 - 0.007ms returns 0x00
T04D0 013:625.367 JLINK_WriteReg(R13 (SP), 0x20002000)
T04D0 013:625.372 - 0.007ms returns 0x00
T04D0 013:625.378 JLINK_WriteReg(R14, 0x20000001)
T04D0 013:625.383 - 0.007ms returns 0x00
T04D0 013:625.389 JLINK_WriteReg(R15 (PC), 0x20000028)
T04D0 013:625.394 - 0.007ms returns 0x00
T04D0 013:625.400 JLINK_WriteReg(XPSR, 0x01000000)
T04D0 013:625.405 - 0.010ms returns 0x00
T04D0 013:625.416 JLINK_WriteReg(MSP, 0x20002000)
T04D0 013:625.421 - 0.007ms returns 0x00
T04D0 013:625.427 JLINK_WriteReg(PSP, 0x20002000)
T04D0 013:625.431 - 0.007ms returns 0x00
T04D0 013:625.437 JLINK_WriteReg(CFBP, 0x00000000)
T04D0 013:625.442 - 0.007ms returns 0x00
T04D0 013:625.450   JLINK_SetBPEx(Addr = 0x20000000, Type = 0xFFFFFFF2)
T04D0 013:625.461    -- CPU_ReadMem(2 bytes @ 0x20000000)
T04D0 013:625.788 - 0.345ms returns 0x00000001
T04D0 013:625.803 JLINK_Go()
T04D0 013:625.811    -- CPU_WriteMem(2 bytes @ 0x20000000)
T04D0 013:626.144    -- CPU_ReadMem(4 bytes @ 0xE0001000)
T04D0 013:626.454    -- CPU_WriteMem(4 bytes @ 0xE0001000)
T04D0 013:626.466    -- CPU_WriteMem(4 bytes @ 0xE0002008)
T04D0 013:626.474    -- CPU_WriteMem(4 bytes @ 0xE000200C)
T04D0 013:626.480    -- CPU_WriteMem(4 bytes @ 0xE0002010)
T04D0 013:626.487    -- CPU_WriteMem(4 bytes @ 0xE0002014)
T04D0 013:628.018    -- CPU_WriteMem(4 bytes @ 0xE0001004)
T04D0 013:630.445 - 4.656ms
T04D0 013:630.467 JLINK_IsHalted()
T04D0 013:632.447    -- CPU_ReadMem(2 bytes @ 0x20000000)
T04D0 013:632.765 - 2.305ms returns TRUE
T04D0 013:632.785 JLINK_ReadReg(R15 (PC))
T04D0 013:632.793 - 0.010ms returns 0x20000000
T04D0 013:632.801 JLINK_ClrBPEx(BPHandle = 0x00000001)
T04D0 013:632.807 - 0.007ms returns 0x00
T04D0 013:632.813 JLINK_ReadReg(R0)
T04D0 013:632.818 - 0.007ms returns 0x00000000
T04D0 013:633.323 JLINK_WriteReg(R0, 0x0001B000)
T04D0 013:633.334 - 0.013ms returns 0x00
T04D0 013:633.340 JLINK_WriteReg(R1, 0x00000400)
T04D0 013:633.345 - 0.007ms returns 0x00
T04D0 013:633.352 JLINK_WriteReg(R2, 0x000000FF)
T04D0 013:633.356 - 0.007ms returns 0x00
T04D0 013:633.362 JLINK_WriteReg(R3, 0x00000000)
T04D0 013:633.367 - 0.007ms returns 0x00
T04D0 013:633.373 JLINK_WriteReg(R4, 0x00000000)
T04D0 013:633.378 - 0.007ms returns 0x00
T04D0 013:633.384 JLINK_WriteReg(R5, 0x00000000)
T04D0 013:633.389 - 0.007ms returns 0x00
T04D0 013:633.395 JLINK_WriteReg(R6, 0x00000000)
T04D0 013:633.400 - 0.007ms returns 0x00
T04D0 013:633.406 JLINK_WriteReg(R7, 0x00000000)
T04D0 013:633.410 - 0.007ms returns 0x00
T04D0 013:633.416 JLINK_WriteReg(R8, 0x00000000)
T04D0 013:633.421 - 0.007ms returns 0x00
T04D0 013:633.427 JLINK_WriteReg(R9, 0x20000474)
T04D0 013:633.432 - 0.007ms returns 0x00
T04D0 013:633.438 JLINK_WriteReg(R10, 0x00000000)
T04D0 013:633.443 - 0.007ms returns 0x00
T04D0 013:633.449 JLINK_WriteReg(R11, 0x00000000)
T04D0 013:633.454 - 0.007ms returns 0x00
T04D0 013:633.460 JLINK_WriteReg(R12, 0x00000000)
T04D0 013:633.465 - 0.007ms returns 0x00
T04D0 013:633.471 JLINK_WriteReg(R13 (SP), 0x20002000)
T04D0 013:633.476 - 0.007ms returns 0x00
T04D0 013:633.482 JLINK_WriteReg(R14, 0x20000001)
T04D0 013:633.487 - 0.007ms returns 0x00
T04D0 013:633.493 JLINK_WriteReg(R15 (PC), 0x20000188)
T04D0 013:633.498 - 0.007ms returns 0x00
T04D0 013:633.504 JLINK_WriteReg(XPSR, 0x01000000)
T04D0 013:633.508 - 0.007ms returns 0x00
T04D0 013:633.514 JLINK_WriteReg(MSP, 0x20002000)
T04D0 013:633.519 - 0.007ms returns 0x00
T04D0 013:633.538 JLINK_WriteReg(PSP, 0x20002000)
T04D0 013:633.544 - 0.007ms returns 0x00
T04D0 013:633.550 JLINK_WriteReg(CFBP, 0x00000000)
T04D0 013:633.554 - 0.007ms returns 0x00
T04D0 013:633.561   JLINK_SetBPEx(Addr = 0x20000000, Type = 0xFFFFFFF2)
T04D0 013:633.569 - 0.010ms returns 0x00000002
T04D0 013:633.576 JLINK_Go()
T04D0 013:633.587    -- CPU_ReadMem(4 bytes @ 0xE0001000)
T04D0 013:633.966    -- CPU_WriteMem(4 bytes @ 0xE0001000)
T04D0 013:636.289 - 2.727ms
T04D0 013:636.311 JLINK_IsHalted()
T04D0 013:638.309    -- CPU_ReadMem(2 bytes @ 0x20000000)
T04D0 013:638.683 - 2.378ms returns TRUE
T04D0 013:638.697 JLINK_ReadReg(R15 (PC))
T04D0 013:638.704 - 0.009ms returns 0x20000000
T04D0 013:638.710 JLINK_ClrBPEx(BPHandle = 0x00000002)
T04D0 013:638.715 - 0.007ms returns 0x00
T04D0 013:638.722 JLINK_ReadReg(R0)
T04D0 013:638.727 - 0.007ms returns 0x00000001
T04D0 013:638.736 JLINK_WriteReg(R0, 0x0001B000)
T04D0 013:638.741 - 0.007ms returns 0x00
T04D0 013:638.784 JLINK_WriteReg(R1, 0x00000400)
T04D0 013:638.792 - 0.010ms returns 0x00
T04D0 013:638.798 JLINK_WriteReg(R2, 0x000000FF)
T04D0 013:638.803 - 0.007ms returns 0x00
T04D0 013:638.809 JLINK_WriteReg(R3, 0x00000000)
T04D0 013:638.814 - 0.007ms returns 0x00
T04D0 013:638.820 JLINK_WriteReg(R4, 0x00000000)
T04D0 013:638.824 - 0.007ms returns 0x00
T04D0 013:638.830 JLINK_WriteReg(R5, 0x00000000)
T04D0 013:638.835 - 0.007ms returns 0x00
T04D0 013:638.841 JLINK_WriteReg(R6, 0x00000000)
T04D0 013:638.846 - 0.007ms returns 0x00
T04D0 013:638.852 JLINK_WriteReg(R7, 0x00000000)
T04D0 013:638.857 - 0.007ms returns 0x00
T04D0 013:638.863 JLINK_WriteReg(R8, 0x00000000)
T04D0 013:638.868 - 0.007ms returns 0x00
T04D0 013:638.874 JLINK_WriteReg(R9, 0x20000474)
T04D0 013:638.879 - 0.007ms returns 0x00
T04D0 013:638.885 JLINK_WriteReg(R10, 0x00000000)
T04D0 013:638.889 - 0.007ms returns 0x00
T04D0 013:638.895 JLINK_WriteReg(R11, 0x00000000)
T04D0 013:638.900 - 0.007ms returns 0x00
T04D0 013:638.906 JLINK_WriteReg(R12, 0x00000000)
T04D0 013:638.911 - 0.007ms returns 0x00
T04D0 013:638.917 JLINK_WriteReg(R13 (SP), 0x20002000)
T04D0 013:638.922 - 0.007ms returns 0x00
T04D0 013:638.928 JLINK_WriteReg(R14, 0x20000001)
T04D0 013:638.933 - 0.007ms returns 0x00
T04D0 013:638.939 JLINK_WriteReg(R15 (PC), 0x20000104)
T04D0 013:638.944 - 0.007ms returns 0x00
T04D0 013:638.950 JLINK_WriteReg(XPSR, 0x01000000)
T04D0 013:638.955 - 0.007ms returns 0x00
T04D0 013:638.961 JLINK_WriteReg(MSP, 0x20002000)
T04D0 013:638.966 - 0.007ms returns 0x00
T04D0 013:638.972 JLINK_WriteReg(PSP, 0x20002000)
T04D0 013:638.976 - 0.007ms returns 0x00
T04D0 013:638.982 JLINK_WriteReg(CFBP, 0x00000000)
T04D0 013:638.987 - 0.007ms returns 0x00
T04D0 013:638.994   JLINK_SetBPEx(Addr = 0x20000000, Type = 0xFFFFFFF2)
T04D0 013:639.001 - 0.010ms returns 0x00000003
T04D0 013:639.008 JLINK_Go()
T04D0 013:639.017    -- CPU_ReadMem(4 bytes @ 0xE0001000)
T04D0 013:639.316    -- CPU_WriteMem(4 bytes @ 0xE0001000)
T04D0 013:641.680 - 2.683ms
T04D0 013:641.699 JLINK_IsHalted()
T04D0 013:641.988 - 0.295ms returns FALSE
T04D0 013:650.542 JLINK_IsHalted()
T04D0 013:650.908 - 0.373ms returns FALSE
T04D0 013:652.538 JLINK_IsHalted()
T04D0 013:652.831 - 0.299ms returns FALSE
T04D0 013:654.536 JLINK_IsHalted()
T04D0 013:654.830 - 0.299ms returns FALSE
T04D0 013:656.538 JLINK_IsHalted()
T04D0 013:656.830 - 0.298ms returns FALSE
T04D0 013:658.535 JLINK_IsHalted()
T04D0 013:658.830 - 0.301ms returns FALSE
T04D0 013:660.536 JLINK_IsHalted()
T04D0 013:660.831 - 0.300ms returns FALSE
T04D0 013:662.541 JLINK_IsHalted()
T04D0 013:664.514    -- CPU_ReadMem(2 bytes @ 0x20000000)
T04D0 013:664.833 - 2.298ms returns TRUE
T04D0 013:664.846 JLINK_ReadReg(R15 (PC))
T04D0 013:664.852 - 0.009ms returns 0x20000000
T04D0 013:664.859 JLINK_ClrBPEx(BPHandle = 0x00000003)
T04D0 013:664.864 - 0.007ms returns 0x00
T04D0 013:664.871 JLINK_ReadReg(R0)
T04D0 013:664.876 - 0.007ms returns 0x00000000
T04D0 013:665.305 JLINK_WriteReg(R0, 0x0001B400)
T04D0 013:665.314 - 0.011ms returns 0x00
T04D0 013:665.320 JLINK_WriteReg(R1, 0x00000400)
T04D0 013:665.325 - 0.007ms returns 0x00
T04D0 013:665.331 JLINK_WriteReg(R2, 0x000000FF)
T04D0 013:665.336 - 0.007ms returns 0x00
T04D0 013:665.342 JLINK_WriteReg(R3, 0x00000000)
T04D0 013:665.347 - 0.007ms returns 0x00
T04D0 013:665.353 JLINK_WriteReg(R4, 0x00000000)
T04D0 013:665.358 - 0.007ms returns 0x00
T04D0 013:665.363 JLINK_WriteReg(R5, 0x00000000)
T04D0 013:665.368 - 0.007ms returns 0x00
T04D0 013:665.374 JLINK_WriteReg(R6, 0x00000000)
T04D0 013:665.379 - 0.007ms returns 0x00
T04D0 013:665.385 JLINK_WriteReg(R7, 0x00000000)
T04D0 013:665.390 - 0.007ms returns 0x00
T04D0 013:665.396 JLINK_WriteReg(R8, 0x00000000)
T04D0 013:665.401 - 0.007ms returns 0x00
T04D0 013:665.407 JLINK_WriteReg(R9, 0x20000474)
T04D0 013:665.411 - 0.007ms returns 0x00
T04D0 013:665.417 JLINK_WriteReg(R10, 0x00000000)
T04D0 013:665.422 - 0.007ms returns 0x00
T04D0 013:665.428 JLINK_WriteReg(R11, 0x00000000)
T04D0 013:665.436 - 0.012ms returns 0x00
T04D0 013:665.444 JLINK_WriteReg(R12, 0x00000000)
T04D0 013:665.449 - 0.007ms returns 0x00
T04D0 013:665.455 JLINK_WriteReg(R13 (SP), 0x20002000)
T04D0 013:665.460 - 0.007ms returns 0x00
T04D0 013:665.466 JLINK_WriteReg(R14, 0x20000001)
T04D0 013:665.471 - 0.007ms returns 0x00
T04D0 013:665.477 JLINK_WriteReg(R15 (PC), 0x20000188)
T04D0 013:665.482 - 0.007ms returns 0x00
T04D0 013:665.488 JLINK_WriteReg(XPSR, 0x01000000)
T04D0 013:665.492 - 0.007ms returns 0x00
T04D0 013:665.498 JLINK_WriteReg(MSP, 0x20002000)
T04D0 013:665.503 - 0.007ms returns 0x00
T04D0 013:665.509 JLINK_WriteReg(PSP, 0x20002000)
T04D0 013:665.514 - 0.007ms returns 0x00
T04D0 013:665.520 JLINK_WriteReg(CFBP, 0x00000000)
T04D0 013:665.524 - 0.009ms returns 0x00
T04D0 013:665.534   JLINK_SetBPEx(Addr = 0x20000000, Type = 0xFFFFFFF2)
T04D0 013:665.542 - 0.010ms returns 0x00000004
T04D0 013:665.548 JLINK_Go()
T04D0 013:665.558    -- CPU_ReadMem(4 bytes @ 0xE0001000)
T04D0 013:665.886    -- CPU_WriteMem(4 bytes @ 0xE0001000)
T04D0 013:668.195 - 2.653ms
T04D0 013:668.208 JLINK_IsHalted()
T04D0 013:670.136    -- CPU_ReadMem(2 bytes @ 0x20000000)
T04D0 013:670.432 - 2.230ms returns TRUE
T04D0 013:670.444 JLINK_ReadReg(R15 (PC))
T04D0 013:670.450 - 0.008ms returns 0x20000000
T04D0 013:670.456 JLINK_ClrBPEx(BPHandle = 0x00000004)
T04D0 013:670.461 - 0.007ms returns 0x00
T04D0 013:670.467 JLINK_ReadReg(R0)
T04D0 013:670.472 - 0.007ms returns 0x00000001
T04D0 013:670.481 JLINK_WriteReg(R0, 0x0001B400)
T04D0 013:670.486 - 0.007ms returns 0x00
T04D0 013:670.492 JLINK_WriteReg(R1, 0x00000400)
T04D0 013:670.497 - 0.007ms returns 0x00
T04D0 013:670.503 JLINK_WriteReg(R2, 0x000000FF)
T04D0 013:670.508 - 0.007ms returns 0x00
T04D0 013:670.514 JLINK_WriteReg(R3, 0x00000000)
T04D0 013:670.518 - 0.007ms returns 0x00
T04D0 013:670.524 JLINK_WriteReg(R4, 0x00000000)
T04D0 013:670.532 - 0.010ms returns 0x00
T04D0 013:670.538 JLINK_WriteReg(R5, 0x00000000)
T04D0 013:670.543 - 0.007ms returns 0x00
T04D0 013:670.549 JLINK_WriteReg(R6, 0x00000000)
T04D0 013:670.554 - 0.007ms returns 0x00
T04D0 013:670.560 JLINK_WriteReg(R7, 0x00000000)
T04D0 013:670.564 - 0.007ms returns 0x00
T04D0 013:670.570 JLINK_WriteReg(R8, 0x00000000)
T04D0 013:670.575 - 0.007ms returns 0x00
T04D0 013:670.581 JLINK_WriteReg(R9, 0x20000474)
T04D0 013:670.586 - 0.007ms returns 0x00
T04D0 013:670.592 JLINK_WriteReg(R10, 0x00000000)
T04D0 013:670.597 - 0.007ms returns 0x00
T04D0 013:670.603 JLINK_WriteReg(R11, 0x00000000)
T04D0 013:670.607 - 0.007ms returns 0x00
T04D0 013:670.613 JLINK_WriteReg(R12, 0x00000000)
T04D0 013:670.618 - 0.007ms returns 0x00
T04D0 013:670.624 JLINK_WriteReg(R13 (SP), 0x20002000)
T04D0 013:670.629 - 0.007ms returns 0x00
T04D0 013:670.635 JLINK_WriteReg(R14, 0x20000001)
T04D0 013:670.640 - 0.007ms returns 0x00
T04D0 013:670.646 JLINK_WriteReg(R15 (PC), 0x20000104)
T04D0 013:670.651 - 0.007ms returns 0x00
T04D0 013:670.657 JLINK_WriteReg(XPSR, 0x01000000)
T04D0 013:670.662 - 0.007ms returns 0x00
T04D0 013:670.668 JLINK_WriteReg(MSP, 0x20002000)
T04D0 013:670.672 - 0.007ms returns 0x00
T04D0 013:670.678 JLINK_WriteReg(PSP, 0x20002000)
T04D0 013:670.683 - 0.007ms returns 0x00
T04D0 013:670.689 JLINK_WriteReg(CFBP, 0x00000000)
T04D0 013:670.694 - 0.007ms returns 0x00
T04D0 013:670.700   JLINK_SetBPEx(Addr = 0x20000000, Type = 0xFFFFFFF2)
T04D0 013:670.707 - 0.010ms returns 0x00000005
T04D0 013:670.714 JLINK_Go()
T04D0 013:670.722    -- CPU_ReadMem(4 bytes @ 0xE0001000)
T04D0 013:671.022    -- CPU_WriteMem(4 bytes @ 0xE0001000)
T04D0 013:673.313 - 2.605ms
T04D0 013:673.325 JLINK_IsHalted()
T04D0 013:673.589 - 0.268ms returns FALSE
T04D0 013:675.535 JLINK_IsHalted()
T04D0 013:675.833 - 0.303ms returns FALSE
T04D0 013:677.540 JLINK_IsHalted()
T04D0 013:677.861 - 0.328ms returns FALSE
T04D0 013:679.537 JLINK_IsHalted()
T04D0 013:679.834 - 0.303ms returns FALSE
T04D0 013:681.537 JLINK_IsHalted()
T04D0 013:681.859 - 0.328ms returns FALSE
T04D0 013:683.539 JLINK_IsHalted()
T04D0 013:683.860 - 0.330ms returns FALSE
T04D0 013:685.539 JLINK_IsHalted()
T04D0 013:685.831 - 0.297ms returns FALSE
T04D0 013:687.543 JLINK_IsHalted()
T04D0 013:687.851 - 0.314ms returns FALSE
T04D0 013:689.535 JLINK_IsHalted()
T04D0 013:689.829 - 0.300ms returns FALSE
T04D0 013:691.540 JLINK_IsHalted()
T04D0 013:691.860 - 0.325ms returns FALSE
T04D0 013:693.536 JLINK_IsHalted()
T04D0 013:693.835 - 0.305ms returns FALSE
T04D0 013:695.538 JLINK_IsHalted()
T04D0 013:697.487    -- CPU_ReadMem(2 bytes @ 0x20000000)
T04D0 013:697.814 - 2.281ms returns TRUE
T04D0 013:697.826 JLINK_ReadReg(R15 (PC))
T04D0 013:697.833 - 0.009ms returns 0x20000000
T04D0 013:697.839 JLINK_ClrBPEx(BPHandle = 0x00000005)
T04D0 013:697.844 - 0.007ms returns 0x00
T04D0 013:697.851 JLINK_ReadReg(R0)
T04D0 013:697.855 - 0.007ms returns 0x00000000
T04D0 013:698.270 JLINK_WriteReg(R0, 0x0001B800)
T04D0 013:698.279 - 0.011ms returns 0x00
T04D0 013:698.285 JLINK_WriteReg(R1, 0x00000400)
T04D0 013:698.290 - 0.007ms returns 0x00
T04D0 013:698.296 JLINK_WriteReg(R2, 0x000000FF)
T04D0 013:698.301 - 0.007ms returns 0x00
T04D0 013:698.307 JLINK_WriteReg(R3, 0x00000000)
T04D0 013:698.312 - 0.007ms returns 0x00
T04D0 013:698.318 JLINK_WriteReg(R4, 0x00000000)
T04D0 013:698.322 - 0.007ms returns 0x00
T04D0 013:698.328 JLINK_WriteReg(R5, 0x00000000)
T04D0 013:698.333 - 0.007ms returns 0x00
T04D0 013:698.339 JLINK_WriteReg(R6, 0x00000000)
T04D0 013:698.344 - 0.007ms returns 0x00
T04D0 013:698.350 JLINK_WriteReg(R7, 0x00000000)
T04D0 013:698.355 - 0.007ms returns 0x00
T04D0 013:698.361 JLINK_WriteReg(R8, 0x00000000)
T04D0 013:698.365 - 0.007ms returns 0x00
T04D0 013:698.371 JLINK_WriteReg(R9, 0x20000474)
T04D0 013:698.376 - 0.007ms returns 0x00
T04D0 013:698.382 JLINK_WriteReg(R10, 0x00000000)
T04D0 013:698.387 - 0.007ms returns 0x00
T04D0 013:698.393 JLINK_WriteReg(R11, 0x00000000)
T04D0 013:698.398 - 0.007ms returns 0x00
T04D0 013:698.404 JLINK_WriteReg(R12, 0x00000000)
T04D0 013:698.409 - 0.007ms returns 0x00
T04D0 013:698.415 JLINK_WriteReg(R13 (SP), 0x20002000)
T04D0 013:698.420 - 0.007ms returns 0x00
T04D0 013:698.426 JLINK_WriteReg(R14, 0x20000001)
T04D0 013:698.431 - 0.007ms returns 0x00
T04D0 013:698.437 JLINK_WriteReg(R15 (PC), 0x20000188)
T04D0 013:698.442 - 0.007ms returns 0x00
T04D0 013:698.448 JLINK_WriteReg(XPSR, 0x01000000)
T04D0 013:698.453 - 0.007ms returns 0x00
T04D0 013:698.459 JLINK_WriteReg(MSP, 0x20002000)
T04D0 013:698.463 - 0.007ms returns 0x00
T04D0 013:698.469 JLINK_WriteReg(PSP, 0x20002000)
T04D0 013:698.474 - 0.007ms returns 0x00
T04D0 013:698.480 JLINK_WriteReg(CFBP, 0x00000000)
T04D0 013:698.485 - 0.007ms returns 0x00
T04D0 013:698.492   JLINK_SetBPEx(Addr = 0x20000000, Type = 0xFFFFFFF2)
T04D0 013:698.499 - 0.010ms returns 0x00000006
T04D0 013:698.506 JLINK_Go()
T04D0 013:698.515    -- CPU_ReadMem(4 bytes @ 0xE0001000)
T04D0 013:698.835    -- CPU_WriteMem(4 bytes @ 0xE0001000)
T04D0 013:701.144 - 2.643ms
T04D0 013:701.155 JLINK_IsHalted()
T04D0 013:703.129    -- CPU_ReadMem(2 bytes @ 0x20000000)
T04D0 013:703.507 - 2.369ms returns TRUE
T04D0 013:703.560 JLINK_ReadReg(R15 (PC))
T04D0 013:703.579 - 0.027ms returns 0x20000000
T04D0 013:703.663 JLINK_ClrBPEx(BPHandle = 0x00000006)
T04D0 013:703.678 - 0.021ms returns 0x00
T04D0 013:703.696 JLINK_ReadReg(R0)
T04D0 013:703.710 - 0.021ms returns 0x00000001
T04D0 013:703.735 JLINK_WriteReg(R0, 0x0001B800)
T04D0 013:703.751 - 0.022ms returns 0x00
T04D0 013:703.769 JLINK_WriteReg(R1, 0x00000400)
T04D0 013:703.783 - 0.021ms returns 0x00
T04D0 013:703.801 JLINK_WriteReg(R2, 0x000000FF)
T04D0 013:703.815 - 0.020ms returns 0x00
T04D0 013:703.833 JLINK_WriteReg(R3, 0x00000000)
T04D0 013:703.847 - 0.020ms returns 0x00
T04D0 013:703.864 JLINK_WriteReg(R4, 0x00000000)
T04D0 013:703.878 - 0.020ms returns 0x00
T04D0 013:703.896 JLINK_WriteReg(R5, 0x00000000)
T04D0 013:703.910 - 0.020ms returns 0x00
T04D0 013:703.928 JLINK_WriteReg(R6, 0x00000000)
T04D0 013:703.942 - 0.020ms returns 0x00
T04D0 013:703.960 JLINK_WriteReg(R7, 0x00000000)
T04D0 013:703.982 - 0.033ms returns 0x00
T04D0 013:704.005 JLINK_WriteReg(R8, 0x00000000)
T04D0 013:704.019 - 0.021ms returns 0x00
T04D0 013:704.037 JLINK_WriteReg(R9, 0x20000474)
T04D0 013:704.052 - 0.021ms returns 0x00
T04D0 013:704.069 JLINK_WriteReg(R10, 0x00000000)
T04D0 013:704.084 - 0.021ms returns 0x00
T04D0 013:704.102 JLINK_WriteReg(R11, 0x00000000)
T04D0 013:704.116 - 0.021ms returns 0x00
T04D0 013:704.134 JLINK_WriteReg(R12, 0x00000000)
T04D0 013:704.148 - 0.020ms returns 0x00
T04D0 013:704.166 JLINK_WriteReg(R13 (SP), 0x20002000)
T04D0 013:704.181 - 0.021ms returns 0x00
T04D0 013:704.199 JLINK_WriteReg(R14, 0x20000001)
T04D0 013:704.213 - 0.021ms returns 0x00
T04D0 013:704.231 JLINK_WriteReg(R15 (PC), 0x20000104)
T04D0 013:704.245 - 0.021ms returns 0x00
T04D0 013:704.263 JLINK_WriteReg(XPSR, 0x01000000)
T04D0 013:704.277 - 0.021ms returns 0x00
T04D0 013:704.295 JLINK_WriteReg(MSP, 0x20002000)
T04D0 013:704.310 - 0.021ms returns 0x00
T04D0 013:704.327 JLINK_WriteReg(PSP, 0x20002000)
T04D0 013:704.342 - 0.021ms returns 0x00
T04D0 013:704.360 JLINK_WriteReg(CFBP, 0x00000000)
T04D0 013:704.374 - 0.021ms returns 0x00
T04D0 013:704.393   JLINK_SetBPEx(Addr = 0x20000000, Type = 0xFFFFFFF2)
T04D0 013:704.414 - 0.029ms returns 0x00000007
T04D0 013:704.433 JLINK_Go()
T04D0 013:704.457    -- CPU_ReadMem(4 bytes @ 0xE0001000)
T04D0 013:704.900    -- CPU_WriteMem(4 bytes @ 0xE0001000)
T04D0 013:707.427 - 3.012ms
T04D0 013:707.463 JLINK_IsHalted()
T04D0 013:707.847 - 0.401ms returns FALSE
T04D0 013:709.572 JLINK_IsHalted()
T04D0 013:709.963 - 0.409ms returns FALSE
T04D0 013:711.563 JLINK_IsHalted()
T04D0 013:711.957 - 0.411ms returns FALSE
T04D0 013:713.575 JLINK_IsHalted()
T04D0 013:713.961 - 0.404ms returns FALSE
T04D0 013:715.586 JLINK_IsHalted()
T04D0 013:715.985 - 0.417ms returns FALSE
T04D0 013:717.568 JLINK_IsHalted()
T04D0 013:717.954 - 0.404ms returns FALSE
T04D0 013:719.604 JLINK_IsHalted()
T04D0 013:719.994 - 0.408ms returns FALSE
T04D0 013:721.580 JLINK_IsHalted()
T04D0 013:721.963 - 0.400ms returns FALSE
T04D0 013:723.566 JLINK_IsHalted()
T04D0 013:723.958 - 0.410ms returns FALSE
T04D0 013:725.564 JLINK_IsHalted()
T04D0 013:725.959 - 0.412ms returns FALSE
T04D0 013:727.573 JLINK_IsHalted()
T04D0 013:728.110 - 0.555ms returns FALSE
T04D0 013:731.573 JLINK_IsHalted()
T04D0 013:733.766    -- CPU_ReadMem(2 bytes @ 0x20000000)
T04D0 013:734.168 - 2.613ms returns TRUE
T04D0 013:734.206 JLINK_ReadReg(R15 (PC))
T04D0 013:734.225 - 0.027ms returns 0x20000000
T04D0 013:734.245 JLINK_ClrBPEx(BPHandle = 0x00000007)
T04D0 013:734.260 - 0.022ms returns 0x00
T04D0 013:734.280 JLINK_ReadReg(R0)
T04D0 013:734.294 - 0.021ms returns 0x00000000
T04D0 013:735.413 JLINK_WriteReg(R0, 0x0001BC00)
T04D0 013:735.440 - 0.035ms returns 0x00
T04D0 013:735.460 JLINK_WriteReg(R1, 0x00000400)
T04D0 013:735.475 - 0.021ms returns 0x00
T04D0 013:735.493 JLINK_WriteReg(R2, 0x000000FF)
T04D0 013:735.507 - 0.021ms returns 0x00
T04D0 013:735.525 JLINK_WriteReg(R3, 0x00000000)
T04D0 013:735.550 - 0.032ms returns 0x00
T04D0 013:735.568 JLINK_WriteReg(R4, 0x00000000)
T04D0 013:735.582 - 0.021ms returns 0x00
T04D0 013:735.600 JLINK_WriteReg(R5, 0x00000000)
T04D0 013:735.615 - 0.021ms returns 0x00
T04D0 013:735.632 JLINK_WriteReg(R6, 0x00000000)
T04D0 013:735.646 - 0.020ms returns 0x00
T04D0 013:735.665 JLINK_WriteReg(R7, 0x00000000)
T04D0 013:735.679 - 0.021ms returns 0x00
T04D0 013:735.697 JLINK_WriteReg(R8, 0x00000000)
T04D0 013:735.711 - 0.021ms returns 0x00
T04D0 013:735.729 JLINK_WriteReg(R9, 0x20000474)
T04D0 013:735.743 - 0.020ms returns 0x00
T04D0 013:735.761 JLINK_WriteReg(R10, 0x00000000)
T04D0 013:735.775 - 0.021ms returns 0x00
T04D0 013:735.793 JLINK_WriteReg(R11, 0x00000000)
T04D0 013:735.808 - 0.021ms returns 0x00
T04D0 013:735.826 JLINK_WriteReg(R12, 0x00000000)
T04D0 013:735.840 - 0.021ms returns 0x00
T04D0 013:735.858 JLINK_WriteReg(R13 (SP), 0x20002000)
T04D0 013:735.873 - 0.022ms returns 0x00
T04D0 013:735.891 JLINK_WriteReg(R14, 0x20000001)
T04D0 013:735.992 - 0.113ms returns 0x00
T04D0 013:736.017 JLINK_WriteReg(R15 (PC), 0x20000188)
T04D0 013:736.032 - 0.021ms returns 0x00
T04D0 013:736.050 JLINK_WriteReg(XPSR, 0x01000000)
T04D0 013:736.064 - 0.021ms returns 0x00
T04D0 013:736.082 JLINK_WriteReg(MSP, 0x20002000)
T04D0 013:736.096 - 0.021ms returns 0x00
T04D0 013:736.114 JLINK_WriteReg(PSP, 0x20002000)
T04D0 013:736.128 - 0.021ms returns 0x00
T04D0 013:736.146 JLINK_WriteReg(CFBP, 0x00000000)
T04D0 013:736.160 - 0.020ms returns 0x00
T04D0 013:736.180   JLINK_SetBPEx(Addr = 0x20000000, Type = 0xFFFFFFF2)
T04D0 013:736.203 - 0.031ms returns 0x00000008
T04D0 013:736.221 JLINK_Go()
T04D0 013:736.249    -- CPU_ReadMem(4 bytes @ 0xE0001000)
T04D0 013:736.660    -- CPU_WriteMem(4 bytes @ 0xE0001000)
T04D0 013:739.189 - 2.986ms
T04D0 013:739.226 JLINK_IsHalted()
T04D0 013:741.367    -- CPU_ReadMem(2 bytes @ 0x20000000)
T04D0 013:741.776 - 2.568ms returns TRUE
T04D0 013:741.812 JLINK_ReadReg(R15 (PC))
T04D0 013:741.830 - 0.025ms returns 0x20000000
T04D0 013:741.848 JLINK_ClrBPEx(BPHandle = 0x00000008)
T04D0 013:741.864 - 0.021ms returns 0x00
T04D0 013:741.882 JLINK_ReadReg(R0)
T04D0 013:741.897 - 0.021ms returns 0x00000001
T04D0 013:741.921 JLINK_WriteReg(R0, 0x0001BC00)
T04D0 013:741.936 - 0.021ms returns 0x00
T04D0 013:741.954 JLINK_WriteReg(R1, 0x00000400)
T04D0 013:741.968 - 0.021ms returns 0x00
T04D0 013:741.986 JLINK_WriteReg(R2, 0x000000FF)
T04D0 013:742.000 - 0.021ms returns 0x00
T04D0 013:742.018 JLINK_WriteReg(R3, 0x00000000)
T04D0 013:742.032 - 0.020ms returns 0x00
T04D0 013:742.050 JLINK_WriteReg(R4, 0x00000000)
T04D0 013:742.064 - 0.020ms returns 0x00
T04D0 013:742.082 JLINK_WriteReg(R5, 0x00000000)
T04D0 013:742.096 - 0.020ms returns 0x00
T04D0 013:742.114 JLINK_WriteReg(R6, 0x00000000)
T04D0 013:742.128 - 0.020ms returns 0x00
T04D0 013:742.145 JLINK_WriteReg(R7, 0x00000000)
T04D0 013:742.160 - 0.020ms returns 0x00
T04D0 013:742.177 JLINK_WriteReg(R8, 0x00000000)
T04D0 013:742.192 - 0.020ms returns 0x00
T04D0 013:742.209 JLINK_WriteReg(R9, 0x20000474)
T04D0 013:742.223 - 0.020ms returns 0x00
T04D0 013:742.241 JLINK_WriteReg(R10, 0x00000000)
T04D0 013:742.255 - 0.021ms returns 0x00
T04D0 013:742.273 JLINK_WriteReg(R11, 0x00000000)
T04D0 013:742.288 - 0.021ms returns 0x00
T04D0 013:742.305 JLINK_WriteReg(R12, 0x00000000)
T04D0 013:742.320 - 0.021ms returns 0x00
T04D0 013:742.337 JLINK_WriteReg(R13 (SP), 0x20002000)
T04D0 013:742.352 - 0.021ms returns 0x00
T04D0 013:742.370 JLINK_WriteReg(R14, 0x20000001)
T04D0 013:742.384 - 0.020ms returns 0x00
T04D0 013:742.402 JLINK_WriteReg(R15 (PC), 0x20000104)
T04D0 013:742.416 - 0.021ms returns 0x00
T04D0 013:742.434 JLINK_WriteReg(XPSR, 0x01000000)
T04D0 013:742.448 - 0.021ms returns 0x00
T04D0 013:742.466 JLINK_WriteReg(MSP, 0x20002000)
T04D0 013:742.480 - 0.020ms returns 0x00
T04D0 013:742.498 JLINK_WriteReg(PSP, 0x20002000)
T04D0 013:742.512 - 0.021ms returns 0x00
T04D0 013:742.529 JLINK_WriteReg(CFBP, 0x00000000)
T04D0 013:742.544 - 0.020ms returns 0x00
T04D0 013:742.569   JLINK_SetBPEx(Addr = 0x20000000, Type = 0xFFFFFFF2)
T04D0 013:742.591 - 0.029ms returns 0x00000009
T04D0 013:742.609 JLINK_Go()
T04D0 013:742.633    -- CPU_ReadMem(4 bytes @ 0xE0001000)
T04D0 013:743.042    -- CPU_WriteMem(4 bytes @ 0xE0001000)
T04D0 013:745.562 - 2.979ms
T04D0 013:745.607 JLINK_IsHalted()
T04D0 013:745.961 - 0.372ms returns FALSE
T04D0 013:747.582 JLINK_IsHalted()
T04D0 013:747.999 - 0.434ms returns FALSE
T04D0 013:750.014 JLINK_IsHalted()
T04D0 013:750.386 - 0.390ms returns FALSE
T04D0 013:752.025 JLINK_IsHalted()
T04D0 013:752.393 - 0.386ms returns FALSE
T04D0 013:754.018 JLINK_IsHalted()
T04D0 013:754.381 - 0.380ms returns FALSE
T04D0 013:756.006 JLINK_IsHalted()
T04D0 013:756.366 - 0.377ms returns FALSE
T04D0 013:758.020 JLINK_IsHalted()
T04D0 013:758.390 - 0.387ms returns FALSE
T04D0 013:760.005 JLINK_IsHalted()
T04D0 013:760.368 - 0.380ms returns FALSE
T04D0 013:762.041 JLINK_IsHalted()
T04D0 013:762.433 - 0.417ms returns FALSE
T04D0 013:764.028 JLINK_IsHalted()
T04D0 013:764.426 - 0.416ms returns FALSE
T04D0 013:766.440 JLINK_IsHalted()
T04D0 013:768.594    -- CPU_ReadMem(2 bytes @ 0x20000000)
T04D0 013:769.007 - 2.585ms returns TRUE
T04D0 013:769.043 JLINK_ReadReg(R15 (PC))
T04D0 013:769.062 - 0.026ms returns 0x20000000
T04D0 013:769.081 JLINK_ClrBPEx(BPHandle = 0x00000009)
T04D0 013:769.096 - 0.021ms returns 0x00
T04D0 013:769.115 JLINK_ReadReg(R0)
T04D0 013:769.129 - 0.021ms returns 0x00000000
T04D0 013:770.286 JLINK_WriteReg(R0, 0x0001C000)
T04D0 013:770.312 - 0.034ms returns 0x00
T04D0 013:770.332 JLINK_WriteReg(R1, 0x00000400)
T04D0 013:770.346 - 0.021ms returns 0x00
T04D0 013:770.364 JLINK_WriteReg(R2, 0x000000FF)
T04D0 013:770.378 - 0.021ms returns 0x00
T04D0 013:770.396 JLINK_WriteReg(R3, 0x00000000)
T04D0 013:770.433 - 0.044ms returns 0x00
T04D0 013:770.452 JLINK_WriteReg(R4, 0x00000000)
T04D0 013:770.466 - 0.021ms returns 0x00
T04D0 013:770.484 JLINK_WriteReg(R5, 0x00000000)
T04D0 013:770.499 - 0.021ms returns 0x00
T04D0 013:770.516 JLINK_WriteReg(R6, 0x00000000)
T04D0 013:770.530 - 0.020ms returns 0x00
T04D0 013:770.548 JLINK_WriteReg(R7, 0x00000000)
T04D0 013:770.563 - 0.021ms returns 0x00
T04D0 013:770.580 JLINK_WriteReg(R8, 0x00000000)
T04D0 013:770.595 - 0.021ms returns 0x00
T04D0 013:770.612 JLINK_WriteReg(R9, 0x20000474)
T04D0 013:770.626 - 0.020ms returns 0x00
T04D0 013:770.644 JLINK_WriteReg(R10, 0x00000000)
T04D0 013:770.658 - 0.021ms returns 0x00
T04D0 013:770.676 JLINK_WriteReg(R11, 0x00000000)
T04D0 013:770.691 - 0.021ms returns 0x00
T04D0 013:770.708 JLINK_WriteReg(R12, 0x00000000)
T04D0 013:770.723 - 0.021ms returns 0x00
T04D0 013:770.740 JLINK_WriteReg(R13 (SP), 0x20002000)
T04D0 013:770.756 - 0.022ms returns 0x00
T04D0 013:770.774 JLINK_WriteReg(R14, 0x20000001)
T04D0 013:770.788 - 0.021ms returns 0x00
T04D0 013:770.806 JLINK_WriteReg(R15 (PC), 0x20000188)
T04D0 013:770.820 - 0.021ms returns 0x00
T04D0 013:770.838 JLINK_WriteReg(XPSR, 0x01000000)
T04D0 013:770.853 - 0.021ms returns 0x00
T04D0 013:770.870 JLINK_WriteReg(MSP, 0x20002000)
T04D0 013:770.885 - 0.021ms returns 0x00
T04D0 013:770.902 JLINK_WriteReg(PSP, 0x20002000)
T04D0 013:770.917 - 0.021ms returns 0x00
T04D0 013:770.935 JLINK_WriteReg(CFBP, 0x00000000)
T04D0 013:770.949 - 0.021ms returns 0x00
T04D0 013:770.968   JLINK_SetBPEx(Addr = 0x20000000, Type = 0xFFFFFFF2)
T04D0 013:770.990 - 0.030ms returns 0x0000000A
T04D0 013:771.009 JLINK_Go()
T04D0 013:771.036    -- CPU_ReadMem(4 bytes @ 0xE0001000)
T04D0 013:771.456    -- CPU_WriteMem(4 bytes @ 0xE0001000)
T04D0 013:774.048 - 3.060ms
T04D0 013:774.089 JLINK_IsHalted()
T04D0 013:776.209    -- CPU_ReadMem(2 bytes @ 0x20000000)
T04D0 013:776.606 - 2.539ms returns TRUE
T04D0 013:776.648 JLINK_ReadReg(R15 (PC))
T04D0 013:776.668 - 0.027ms returns 0x20000000
T04D0 013:776.688 JLINK_ClrBPEx(BPHandle = 0x0000000A)
T04D0 013:776.704 - 0.022ms returns 0x00
T04D0 013:776.722 JLINK_ReadReg(R0)
T04D0 013:776.737 - 0.021ms returns 0x00000001
T04D0 013:776.762 JLINK_WriteReg(R0, 0x0001C000)
T04D0 013:776.778 - 0.022ms returns 0x00
T04D0 013:776.796 JLINK_WriteReg(R1, 0x00000400)
T04D0 013:776.811 - 0.021ms returns 0x00
T04D0 013:776.828 JLINK_WriteReg(R2, 0x000000FF)
T04D0 013:776.842 - 0.020ms returns 0x00
T04D0 013:776.860 JLINK_WriteReg(R3, 0x00000000)
T04D0 013:776.874 - 0.020ms returns 0x00
T04D0 013:776.892 JLINK_WriteReg(R4, 0x00000000)
T04D0 013:776.906 - 0.021ms returns 0x00
T04D0 013:776.924 JLINK_WriteReg(R5, 0x00000000)
T04D0 013:776.938 - 0.020ms returns 0x00
T04D0 013:776.956 JLINK_WriteReg(R6, 0x00000000)
T04D0 013:776.970 - 0.021ms returns 0x00
T04D0 013:776.988 JLINK_WriteReg(R7, 0x00000000)
T04D0 013:777.002 - 0.021ms returns 0x00
T04D0 013:777.020 JLINK_WriteReg(R8, 0x00000000)
T04D0 013:777.034 - 0.021ms returns 0x00
T04D0 013:777.052 JLINK_WriteReg(R9, 0x20000474)
T04D0 013:777.066 - 0.020ms returns 0x00
T04D0 013:777.084 JLINK_WriteReg(R10, 0x00000000)
T04D0 013:777.098 - 0.021ms returns 0x00
T04D0 013:777.124 JLINK_WriteReg(R11, 0x00000000)
T04D0 013:777.143 - 0.025ms returns 0x00
T04D0 013:777.161 JLINK_WriteReg(R12, 0x00000000)
T04D0 013:777.175 - 0.021ms returns 0x00
T04D0 013:777.193 JLINK_WriteReg(R13 (SP), 0x20002000)
T04D0 013:777.208 - 0.021ms returns 0x00
T04D0 013:777.226 JLINK_WriteReg(R14, 0x20000001)
T04D0 013:777.240 - 0.021ms returns 0x00
T04D0 013:777.258 JLINK_WriteReg(R15 (PC), 0x20000104)
T04D0 013:777.273 - 0.021ms returns 0x00
T04D0 013:777.290 JLINK_WriteReg(XPSR, 0x01000000)
T04D0 013:777.305 - 0.020ms returns 0x00
T04D0 013:777.322 JLINK_WriteReg(MSP, 0x20002000)
T04D0 013:777.336 - 0.021ms returns 0x00
T04D0 013:777.354 JLINK_WriteReg(PSP, 0x20002000)
T04D0 013:777.368 - 0.020ms returns 0x00
T04D0 013:777.386 JLINK_WriteReg(CFBP, 0x00000000)
T04D0 013:777.400 - 0.020ms returns 0x00
T04D0 013:777.420   JLINK_SetBPEx(Addr = 0x20000000, Type = 0xFFFFFFF2)
T04D0 013:777.454 - 0.042ms returns 0x0000000B
T04D0 013:777.473 JLINK_Go()
T04D0 013:777.499    -- CPU_ReadMem(4 bytes @ 0xE0001000)
T04D0 013:777.925    -- CPU_WriteMem(4 bytes @ 0xE0001000)
T04D0 013:780.491 - 3.036ms
T04D0 013:780.537 JLINK_IsHalted()
T04D0 013:780.937 - 0.418ms returns FALSE
T04D0 013:782.444 JLINK_IsHalted()
T04D0 013:782.835 - 0.408ms returns FALSE
T04D0 013:784.474 JLINK_IsHalted()
T04D0 013:784.852 - 0.397ms returns FALSE
T04D0 013:786.451 JLINK_IsHalted()
T04D0 013:786.849 - 0.416ms returns FALSE
T04D0 013:788.456 JLINK_IsHalted()
T04D0 013:788.846 - 0.408ms returns FALSE
T04D0 013:790.449 JLINK_IsHalted()
T04D0 013:790.847 - 0.415ms returns FALSE
T04D0 013:792.473 JLINK_IsHalted()
T04D0 013:792.872 - 0.417ms returns FALSE
T04D0 013:796.454 JLINK_IsHalted()
T04D0 013:796.900 - 0.464ms returns FALSE
T04D0 013:798.448 JLINK_IsHalted()
T04D0 013:798.834 - 0.404ms returns FALSE
T04D0 013:800.456 JLINK_IsHalted()
T04D0 013:800.863 - 0.425ms returns FALSE
T04D0 013:802.452 JLINK_IsHalted()
T04D0 013:804.648    -- CPU_ReadMem(2 bytes @ 0x20000000)
T04D0 013:805.048 - 2.614ms returns TRUE
T04D0 013:805.085 JLINK_ReadReg(R15 (PC))
T04D0 013:805.105 - 0.027ms returns 0x20000000
T04D0 013:805.124 JLINK_ClrBPEx(BPHandle = 0x0000000B)
T04D0 013:805.140 - 0.022ms returns 0x00
T04D0 013:805.159 JLINK_ReadReg(R0)
T04D0 013:805.173 - 0.021ms returns 0x00000000
T04D0 013:806.333 JLINK_WriteReg(R0, 0x0001C400)
T04D0 013:806.360 - 0.034ms returns 0x00
T04D0 013:806.379 JLINK_WriteReg(R1, 0x00000400)
T04D0 013:806.394 - 0.021ms returns 0x00
T04D0 013:806.438 JLINK_WriteReg(R2, 0x000000FF)
T04D0 013:806.454 - 0.023ms returns 0x00
T04D0 013:806.473 JLINK_WriteReg(R3, 0x00000000)
T04D0 013:806.487 - 0.021ms returns 0x00
T04D0 013:806.505 JLINK_WriteReg(R4, 0x00000000)
T04D0 013:806.519 - 0.021ms returns 0x00
T04D0 013:806.537 JLINK_WriteReg(R5, 0x00000000)
T04D0 013:806.551 - 0.021ms returns 0x00
T04D0 013:806.569 JLINK_WriteReg(R6, 0x00000000)
T04D0 013:806.583 - 0.020ms returns 0x00
T04D0 013:806.601 JLINK_WriteReg(R7, 0x00000000)
T04D0 013:806.615 - 0.021ms returns 0x00
T04D0 013:806.633 JLINK_WriteReg(R8, 0x00000000)
T04D0 013:806.647 - 0.021ms returns 0x00
T04D0 013:806.724 JLINK_WriteReg(R9, 0x20000474)
T04D0 013:806.738 - 0.021ms returns 0x00
T04D0 013:806.756 JLINK_WriteReg(R10, 0x00000000)
T04D0 013:806.771 - 0.021ms returns 0x00
T04D0 013:806.789 JLINK_WriteReg(R11, 0x00000000)
T04D0 013:806.803 - 0.021ms returns 0x00
T04D0 013:806.821 JLINK_WriteReg(R12, 0x00000000)
T04D0 013:806.835 - 0.021ms returns 0x00
T04D0 013:806.853 JLINK_WriteReg(R13 (SP), 0x20002000)
T04D0 013:806.868 - 0.022ms returns 0x00
T04D0 013:806.886 JLINK_WriteReg(R14, 0x20000001)
T04D0 013:806.900 - 0.021ms returns 0x00
T04D0 013:806.918 JLINK_WriteReg(R15 (PC), 0x20000188)
T04D0 013:806.933 - 0.021ms returns 0x00
T04D0 013:806.950 JLINK_WriteReg(XPSR, 0x01000000)
T04D0 013:806.965 - 0.021ms returns 0x00
T04D0 013:806.983 JLINK_WriteReg(MSP, 0x20002000)
T04D0 013:806.997 - 0.021ms returns 0x00
T04D0 013:807.015 JLINK_WriteReg(PSP, 0x20002000)
T04D0 013:807.029 - 0.028ms returns 0x00
T04D0 013:807.059 JLINK_WriteReg(CFBP, 0x00000000)
T04D0 013:807.074 - 0.021ms returns 0x00
T04D0 013:807.094   JLINK_SetBPEx(Addr = 0x20000000, Type = 0xFFFFFFF2)
T04D0 013:807.116 - 0.030ms returns 0x0000000C
T04D0 013:807.135 JLINK_Go()
T04D0 013:807.162    -- CPU_ReadMem(4 bytes @ 0xE0001000)
T04D0 013:807.564    -- CPU_WriteMem(4 bytes @ 0xE0001000)
T04D0 013:810.147 - 3.030ms
T04D0 013:810.183 JLINK_IsHalted()
T04D0 013:812.372    -- CPU_ReadMem(2 bytes @ 0x20000000)
T04D0 013:812.790 - 2.624ms returns TRUE
T04D0 013:812.827 JLINK_ReadReg(R15 (PC))
T04D0 013:812.845 - 0.026ms returns 0x20000000
T04D0 013:812.864 JLINK_ClrBPEx(BPHandle = 0x0000000C)
T04D0 013:812.880 - 0.022ms returns 0x00
T04D0 013:812.899 JLINK_ReadReg(R0)
T04D0 013:812.914 - 0.022ms returns 0x00000001
T04D0 013:812.940 JLINK_WriteReg(R0, 0x0001C400)
T04D0 013:812.955 - 0.023ms returns 0x00
T04D0 013:812.974 JLINK_WriteReg(R1, 0x00000400)
T04D0 013:812.989 - 0.022ms returns 0x00
T04D0 013:813.007 JLINK_WriteReg(R2, 0x000000FF)
T04D0 013:813.022 - 0.022ms returns 0x00
T04D0 013:813.041 JLINK_WriteReg(R3, 0x00000000)
T04D0 013:813.056 - 0.022ms returns 0x00
T04D0 013:813.074 JLINK_WriteReg(R4, 0x00000000)
T04D0 013:813.089 - 0.021ms returns 0x00
T04D0 013:813.107 JLINK_WriteReg(R5, 0x00000000)
T04D0 013:813.122 - 0.021ms returns 0x00
T04D0 013:813.140 JLINK_WriteReg(R6, 0x00000000)
T04D0 013:813.155 - 0.021ms returns 0x00
T04D0 013:813.173 JLINK_WriteReg(R7, 0x00000000)
T04D0 013:813.188 - 0.021ms returns 0x00
T04D0 013:813.206 JLINK_WriteReg(R8, 0x00000000)
T04D0 013:813.221 - 0.022ms returns 0x00
T04D0 013:813.239 JLINK_WriteReg(R9, 0x20000474)
T04D0 013:813.254 - 0.021ms returns 0x00
T04D0 013:813.272 JLINK_WriteReg(R10, 0x00000000)
T04D0 013:813.287 - 0.022ms returns 0x00
T04D0 013:813.305 JLINK_WriteReg(R11, 0x00000000)
T04D0 013:813.320 - 0.021ms returns 0x00
T04D0 013:813.338 JLINK_WriteReg(R12, 0x00000000)
T04D0 013:813.353 - 0.021ms returns 0x00
T04D0 013:813.371 JLINK_WriteReg(R13 (SP), 0x20002000)
T04D0 013:813.387 - 0.022ms returns 0x00
T04D0 013:813.405 JLINK_WriteReg(R14, 0x20000001)
T04D0 013:813.450 - 0.052ms returns 0x00
T04D0 013:813.469 JLINK_WriteReg(R15 (PC), 0x20000104)
T04D0 013:813.484 - 0.022ms returns 0x00
T04D0 013:813.502 JLINK_WriteReg(XPSR, 0x01000000)
T04D0 013:813.517 - 0.021ms returns 0x00
T04D0 013:813.535 JLINK_WriteReg(MSP, 0x20002000)
T04D0 013:813.550 - 0.022ms returns 0x00
T04D0 013:813.568 JLINK_WriteReg(PSP, 0x20002000)
T04D0 013:813.583 - 0.022ms returns 0x00
T04D0 013:813.602 JLINK_WriteReg(CFBP, 0x00000000)
T04D0 013:813.616 - 0.021ms returns 0x00
T04D0 013:813.636   JLINK_SetBPEx(Addr = 0x20000000, Type = 0xFFFFFFF2)
T04D0 013:813.658 - 0.030ms returns 0x0000000D
T04D0 013:813.677 JLINK_Go()
T04D0 013:813.701    -- CPU_ReadMem(4 bytes @ 0xE0001000)
T04D0 013:814.101    -- CPU_WriteMem(4 bytes @ 0xE0001000)
T04D0 013:816.721 - 3.063ms
T04D0 013:816.758 JLINK_IsHalted()
T04D0 013:817.107 - 0.366ms returns FALSE
T04D0 013:820.459 JLINK_IsHalted()
T04D0 013:820.880 - 0.443ms returns FALSE
T04D0 013:822.500 JLINK_IsHalted()
T04D0 013:822.870 - 0.382ms returns FALSE
T04D0 013:824.435 JLINK_IsHalted()
T04D0 013:824.772 - 0.346ms returns FALSE
T04D0 013:826.431 JLINK_IsHalted()
T04D0 013:826.750 - 0.331ms returns FALSE
T04D0 013:828.438 JLINK_IsHalted()
T04D0 013:828.779 - 0.354ms returns FALSE
T04D0 013:830.436 JLINK_IsHalted()
T04D0 013:830.775 - 0.348ms returns FALSE
T04D0 013:832.435 JLINK_IsHalted()
T04D0 013:832.743 - 0.318ms returns FALSE
T04D0 013:834.443 JLINK_IsHalted()
T04D0 013:834.779 - 0.346ms returns FALSE
T04D0 013:836.435 JLINK_IsHalted()
T04D0 013:836.743 - 0.319ms returns FALSE
T04D0 013:838.430 JLINK_IsHalted()
T04D0 013:840.451    -- CPU_ReadMem(2 bytes @ 0x20000000)
T04D0 013:840.796 - 2.376ms returns TRUE
T04D0 013:840.817 JLINK_ReadReg(R15 (PC))
T04D0 013:840.828 - 0.015ms returns 0x20000000
T04D0 013:840.840 JLINK_ClrBPEx(BPHandle = 0x0000000D)
T04D0 013:840.849 - 0.013ms returns 0x00
T04D0 013:840.865 JLINK_ReadReg(R0)
T04D0 013:840.877 - 0.015ms returns 0x00000000
T04D0 013:841.583 JLINK_WriteReg(R0, 0x0001C800)
T04D0 013:841.599 - 0.020ms returns 0x00
T04D0 013:841.610 JLINK_WriteReg(R1, 0x00000400)
T04D0 013:841.619 - 0.012ms returns 0x00
T04D0 013:841.630 JLINK_WriteReg(R2, 0x000000FF)
T04D0 013:841.638 - 0.012ms returns 0x00
T04D0 013:841.649 JLINK_WriteReg(R3, 0x00000000)
T04D0 013:841.657 - 0.012ms returns 0x00
T04D0 013:841.667 JLINK_WriteReg(R4, 0x00000000)
T04D0 013:841.675 - 0.012ms returns 0x00
T04D0 013:841.686 JLINK_WriteReg(R5, 0x00000000)
T04D0 013:841.694 - 0.012ms returns 0x00
T04D0 013:841.704 JLINK_WriteReg(R6, 0x00000000)
T04D0 013:841.713 - 0.012ms returns 0x00
T04D0 013:841.723 JLINK_WriteReg(R7, 0x00000000)
T04D0 013:841.731 - 0.012ms returns 0x00
T04D0 013:841.742 JLINK_WriteReg(R8, 0x00000000)
T04D0 013:841.750 - 0.012ms returns 0x00
T04D0 013:841.761 JLINK_WriteReg(R9, 0x20000474)
T04D0 013:841.769 - 0.012ms returns 0x00
T04D0 013:841.779 JLINK_WriteReg(R10, 0x00000000)
T04D0 013:841.788 - 0.012ms returns 0x00
T04D0 013:841.798 JLINK_WriteReg(R11, 0x00000000)
T04D0 013:841.807 - 0.012ms returns 0x00
T04D0 013:841.817 JLINK_WriteReg(R12, 0x00000000)
T04D0 013:841.825 - 0.012ms returns 0x00
T04D0 013:841.836 JLINK_WriteReg(R13 (SP), 0x20002000)
T04D0 013:841.845 - 0.012ms returns 0x00
T04D0 013:841.855 JLINK_WriteReg(R14, 0x20000001)
T04D0 013:841.864 - 0.012ms returns 0x00
T04D0 013:841.874 JLINK_WriteReg(R15 (PC), 0x20000188)
T04D0 013:841.882 - 0.012ms returns 0x00
T04D0 013:841.893 JLINK_WriteReg(XPSR, 0x01000000)
T04D0 013:841.901 - 0.012ms returns 0x00
T04D0 013:841.912 JLINK_WriteReg(MSP, 0x20002000)
T04D0 013:841.920 - 0.012ms returns 0x00
T04D0 013:841.931 JLINK_WriteReg(PSP, 0x20002000)
T04D0 013:841.939 - 0.012ms returns 0x00
T04D0 013:841.950 JLINK_WriteReg(CFBP, 0x00000000)
